! Synthetic S2P fixture: cable_1000mm.s2p
! Generated for testing purposes
# MHZ S DB R 50
1.000000  -14.9812 30.0600  -3.0050 -45.0900  -3.0050 -45.0900  -16.9812 40.0600
10.990000  -14.7930 30.6594  -3.0549 -45.9891  -3.0549 -45.9891  -16.7930 40.6594
20.980000  -14.6057 31.2588  -3.1049 -46.8882  -3.1049 -46.8882  -16.6057 41.2588
30.970000  -14.4199 31.8582  -3.1549 -47.7873  -3.1549 -47.7873  -16.4199 41.8582
40.960000  -14.2364 32.4576  -3.2048 -48.6864  -3.2048 -48.6864  -16.2364 42.4576
50.950000  -14.0559 33.0570  -3.2548 -49.5855  -3.2548 -49.5855  -16.0559 43.0570
60.940000  -13.8792 33.6564  -3.3047 -50.4846  -3.3047 -50.4846  -15.8792 43.6564
70.930000  -13.7068 34.2558  -3.3546 -51.3837  -3.3546 -51.3837  -15.7068 44.2558
80.920000  -13.5396 34.8552  -3.4046 -52.2828  -3.4046 -52.2828  -15.5396 44.8552
90.910000  -13.3781 35.4546  -3.4546 -53.1819  -3.4546 -53.1819  -15.3781 45.4546
100.900000  -13.2229 36.0540  -3.5045 -54.0810  -3.5045 -54.0810  -15.2229 46.0540
110.890000  -13.0748 36.6534  -3.5545 -54.9801  -3.5545 -54.9801  -15.0748 46.6534
120.880000  -12.9343 37.2528  -3.6044 -55.8792  -3.6044 -55.8792  -14.9343 47.2528
130.870000  -12.8019 37.8522  -3.6543 -56.7783  -3.6543 -56.7783  -14.8019 47.8522
140.860000  -12.6782 38.4516  -3.7043 -57.6774  -3.7043 -57.6774  -14.6782 48.4516
150.850000  -12.5636 39.0510  -3.7542 -58.5765  -3.7542 -58.5765  -14.5636 49.0510
160.840000  -12.4586 39.6504  -3.8042 -59.4756  -3.8042 -59.4756  -14.4586 49.6504
170.830000  -12.3636 40.2498  -3.8542 -60.3747  -3.8542 -60.3747  -14.3636 50.2498
180.820000  -12.2790 40.8492  -3.9041 -61.2738  -3.9041 -61.2738  -14.2790 50.8492
190.810000  -12.2051 41.4486  -3.9541 -62.1729  -3.9541 -62.1729  -14.2051 51.4486
200.800000  -12.1422 42.0480  -4.0040 -63.0720  -4.0040 -63.0720  -14.1422 52.0480
210.790000  -12.0906 42.6474  -4.0540 -63.9711  -4.0540 -63.9711  -14.0906 52.6474
220.780000  -12.0504 43.2468  -4.1039 -64.8702  -4.1039 -64.8702  -14.0504 53.2468
230.770000  -12.0219 43.8462  -4.1539 -65.7693  -4.1539 -65.7693  -14.0219 53.8462
240.760000  -12.0051 44.4456  -4.2038 -66.6684  -4.2038 -66.6684  -14.0051 54.4456
250.750000  -12.0000 45.0450  -4.2538 -67.5675  -4.2538 -67.5675  -14.0000 55.0450
260.740000  -12.0068 45.6444  -4.3037 -68.4666  -4.3037 -68.4666  -14.0068 55.6444
270.730000  -12.0254 46.2438  -4.3537 -69.3657  -4.3537 -69.3657  -14.0254 56.2438
280.720000  -12.0557 46.8432  -4.4036 -70.2648  -4.4036 -70.2648  -14.0557 56.8432
290.710000  -12.0976 47.4426  -4.4535 -71.1639  -4.4535 -71.1639  -14.0976 57.4426
300.700000  -12.1509 48.0420  -4.5035 -72.0630  -4.5035 -72.0630  -14.1509 58.0420
310.690000  -12.2155 48.6414  -4.5534 -72.9621  -4.5534 -72.9621  -14.2155 58.6414
320.680000  -12.2910 49.2408  -4.6034 -73.8612  -4.6034 -73.8612  -14.2910 59.2408
330.670000  -12.3772 49.8402  -4.6533 -74.7603  -4.6533 -74.7603  -14.3772 59.8402
340.660000  -12.4737 50.4396  -4.7033 -75.6594  -4.7033 -75.6594  -14.4737 60.4396
350.650000  -12.5802 51.0390  -4.7532 -76.5585  -4.7532 -76.5585  -14.5802 61.0390
360.640000  -12.6962 51.6384  -4.8032 -77.4576  -4.8032 -77.4576  -14.6962 61.6384
370.630000  -12.8212 52.2378  -4.8532 -78.3567  -4.8532 -78.3567  -14.8212 62.2378
380.620000  -12.9549 52.8372  -4.9031 -79.2558  -4.9031 -79.2558  -14.9549 62.8372
390.610000  -13.0966 53.4366  -4.9531 -80.1549  -4.9531 -80.1549  -15.0966 63.4366
400.600000  -13.2458 54.0360  -5.0030 -81.0540  -5.0030 -81.0540  -15.2458 64.0360
410.590000  -13.4019 54.6354  -5.0530 -81.9531  -5.0530 -81.9531  -15.4019 64.6354
420.580000  -13.5643 55.2348  -5.1029 -82.8522  -5.1029 -82.8522  -15.5643 65.2348
430.570000  -13.7324 55.8342  -5.1528 -83.7513  -5.1528 -83.7513  -15.7324 65.8342
440.560000  -13.9054 56.4336  -5.2028 -84.6504  -5.2028 -84.6504  -15.9054 66.4336
450.550000  -14.0828 57.0330  -5.2527 -85.5495  -5.2527 -85.5495  -16.0828 67.0330
460.540000  -14.2638 57.6324  -5.3027 -86.4486  -5.3027 -86.4486  -16.2638 67.6324
470.530000  -14.4477 58.2318  -5.3527 -87.3477  -5.3527 -87.3477  -16.4477 68.2318
480.520000  -14.6337 58.8312  -5.4026 -88.2468  -5.4026 -88.2468  -16.6337 68.8312
490.510000  -14.8212 59.4306  -5.4526 -89.1459  -5.4526 -89.1459  -16.8212 69.4306
500.500000  -15.0094 60.0300  -5.5025 -90.0450  -5.5025 -90.0450  -17.0094 70.0300
510.490000  -15.1976 60.6294  -5.5525 -90.9441  -5.5525 -90.9441  -17.1976 70.6294
520.480000  -15.3850 61.2288  -5.6024 -91.8432  -5.6024 -91.8432  -17.3850 71.2288
530.470000  -15.5708 61.8282  -5.6524 -92.7423  -5.6524 -92.7423  -17.5708 71.8282
540.460000  -15.7545 62.4276  -5.7023 -93.6414  -5.7023 -93.6414  -17.7545 72.4276
550.450000  -15.9351 63.0270  -5.7523 -94.5405  -5.7523 -94.5405  -17.9351 73.0270
560.440000  -16.1121 63.6264  -5.8022 -95.4396  -5.8022 -95.4396  -18.1121 73.6264
570.430000  -16.2847 64.2258  -5.8521 -96.3387  -5.8521 -96.3387  -18.2847 74.2258
580.420000  -16.4522 64.8252  -5.9021 -97.2378  -5.9021 -97.2378  -18.4522 74.8252
590.410000  -16.6140 65.4246  -5.9520 -98.1369  -5.9520 -98.1369  -18.6140 75.4246
600.400000  -16.7695 66.0240  -6.0020 -99.0360  -6.0020 -99.0360  -18.7695 76.0240
610.390000  -16.9179 66.6234  -6.0519 -99.9351  -6.0519 -99.9351  -18.9179 76.6234
620.380000  -17.0589 67.2228  -6.1019 -100.8342  -6.1019 -100.8342  -19.0589 77.2228
630.370000  -17.1917 67.8222  -6.1518 -101.7333  -6.1518 -101.7333  -19.1917 77.8222
640.360000  -17.3159 68.4216  -6.2018 -102.6324  -6.2018 -102.6324  -19.3159 78.4216
650.350000  -17.4309 69.0210  -6.2517 -103.5315  -6.2517 -103.5315  -19.4309 79.0210
660.340000  -17.5364 69.6204  -6.3017 -104.4306  -6.3017 -104.4306  -19.5364 79.6204
670.330000  -17.6319 70.2198  -6.3516 -105.3297  -6.3516 -105.3297  -19.6319 80.2198
680.320000  -17.7170 70.8192  -6.4016 -106.2288  -6.4016 -106.2288  -19.7170 80.8192
690.310000  -17.7915 71.4186  -6.4516 -107.1279  -6.4516 -107.1279  -19.7915 81.4186
700.300000  -17.8549 72.0180  -6.5015 -108.0270  -6.5015 -108.0270  -19.8549 82.0180
710.290000  -17.9071 72.6174  -6.5514 -108.9261  -6.5514 -108.9261  -19.9071 82.6174
720.280000  -17.9478 73.2168  -6.6014 -109.8252  -6.6014 -109.8252  -19.9478 83.2168
730.270000  -17.9770 73.8162  -6.6513 -110.7243  -6.6513 -110.7243  -19.9770 83.8162
740.260000  -17.9944 74.4156  -6.7013 -111.6234  -6.7013 -111.6234  -19.9944 84.4156
750.250000  -18.0000 75.0150  -6.7512 -112.5225  -6.7512 -112.5225  -20.0000 85.0150
760.240000  -17.9938 75.6144  -6.8012 -113.4216  -6.8012 -113.4216  -19.9938 85.6144
770.230000  -17.9758 76.2138  -6.8511 -114.3207  -6.8511 -114.3207  -19.9758 86.2138
780.220000  -17.9461 76.8132  -6.9011 -115.2198  -6.9011 -115.2198  -19.9461 86.8132
790.210000  -17.9048 77.4126  -6.9511 -116.1189  -6.9511 -116.1189  -19.9048 87.4126
800.200000  -17.8520 78.0120  -7.0010 -117.0180  -7.0010 -117.0180  -19.8520 88.0120
810.190000  -17.7880 78.6114  -7.0510 -117.9171  -7.0510 -117.9171  -19.7880 88.6114
820.180000  -17.7130 79.2108  -7.1009 -118.8162  -7.1009 -118.8162  -19.7130 89.2108
830.170000  -17.6274 79.8102  -7.1509 -119.7153  -7.1509 -119.7153  -19.6274 89.8102
840.160000  -17.5314 80.4096  -7.2008 -120.6144  -7.2008 -120.6144  -19.5314 90.4096
850.150000  -17.4254 81.0090  -7.2508 -121.5135  -7.2508 -121.5135  -19.4254 91.0090
860.140000  -17.3099 81.6084  -7.3007 -122.4126  -7.3007 -122.4126  -19.3099 91.6084
870.130000  -17.1852 82.2078  -7.3506 -123.3117  -7.3506 -123.3117  -19.1852 92.2078
880.120000  -17.0520 82.8072  -7.4006 -124.2108  -7.4006 -124.2108  -19.0520 92.8072
890.110000  -16.9107 83.4066  -7.4505 -125.1099  -7.4505 -125.1099  -18.9107 93.4066
900.100000  -16.7618 84.0060  -7.5005 -126.0090  -7.5005 -126.0090  -18.7618 94.0060
910.090000  -16.6060 84.6054  -7.5504 -126.9081  -7.5504 -126.9081  -18.6060 94.6054
920.080000  -16.4439 85.2048  -7.6004 -127.8072  -7.6004 -127.8072  -18.4439 95.2048
930.070000  -16.2761 85.8042  -7.6503 -128.7063  -7.6503 -128.7063  -18.2761 95.8042
940.060000  -16.1033 86.4036  -7.7003 -129.6054  -7.7003 -129.6054  -18.1033 96.4036
950.050000  -15.9262 87.0030  -7.7502 -130.5045  -7.7502 -130.5045  -17.9262 97.0030
960.040000  -15.7453 87.6024  -7.8002 -131.4036  -7.8002 -131.4036  -17.7453 97.6024
970.030000  -15.5616 88.2018  -7.8501 -132.3027  -7.8501 -132.3027  -17.5616 98.2018
980.020000  -15.3756 88.8012  -7.9001 -133.2018  -7.9001 -133.2018  -17.3756 98.8012
990.010000  -15.1882 89.4006  -7.9501 -134.1009  -7.9501 -134.1009  -17.1882 99.4006
1000.000000  -15.0000 90.0000  -8.0000 -135.0000  -8.0000 -135.0000  -17.0000 100.0000
