! Synthetic S2P fixture: vna_1000mm.s2p
! Generated for testing purposes
# MHZ S DB R 50
1.000000  -14.9812 30.0600  -2.0040 -45.0900  -2.0040 -45.0900  -16.9812 40.0600
5.995000  -14.8870 30.3597  -2.0240 -45.5395  -2.0240 -45.5395  -16.8870 40.3597
10.990000  -14.7930 30.6594  -2.0440 -45.9891  -2.0440 -45.9891  -16.7930 40.6594
15.985000  -14.6992 30.9591  -2.0639 -46.4387  -2.0639 -46.4387  -16.6992 40.9591
20.980000  -14.6057 31.2588  -2.0839 -46.8882  -2.0839 -46.8882  -16.6057 41.2588
25.975000  -14.5126 31.5585  -2.1039 -47.3377  -2.1039 -47.3377  -16.5126 41.5585
30.970000  -14.4199 31.8582  -2.1239 -47.7873  -2.1239 -47.7873  -16.4199 41.8582
35.965000  -14.3278 32.1579  -2.1439 -48.2368  -2.1439 -48.2368  -16.3278 42.1579
40.960000  -14.2364 32.4576  -2.1638 -48.6864  -2.1638 -48.6864  -16.2364 42.4576
45.955000  -14.1458 32.7573  -2.1838 -49.1360  -2.1838 -49.1360  -16.1458 42.7573
50.950000  -14.0559 33.0570  -2.2038 -49.5855  -2.2038 -49.5855  -16.0559 43.0570
55.945000  -13.9670 33.3567  -2.2238 -50.0350  -2.2238 -50.0350  -15.9670 43.3567
60.940000  -13.8792 33.6564  -2.2438 -50.4846  -2.2438 -50.4846  -15.8792 43.6564
65.935000  -13.7924 33.9561  -2.2637 -50.9342  -2.2637 -50.9342  -15.7924 43.9561
70.930000  -13.7068 34.2558  -2.2837 -51.3837  -2.2837 -51.3837  -15.7068 44.2558
75.925000  -13.6225 34.5555  -2.3037 -51.8332  -2.3037 -51.8332  -15.6225 44.5555
80.920000  -13.5396 34.8552  -2.3237 -52.2828  -2.3237 -52.2828  -15.5396 44.8552
85.915000  -13.4581 35.1549  -2.3437 -52.7323  -2.3437 -52.7323  -15.4581 45.1549
90.910000  -13.3781 35.4546  -2.3636 -53.1819  -2.3636 -53.1819  -15.3781 45.4546
95.905000  -13.2997 35.7543  -2.3836 -53.6315  -2.3836 -53.6315  -15.2997 45.7543
100.900000  -13.2229 36.0540  -2.4036 -54.0810  -2.4036 -54.0810  -15.2229 46.0540
105.895000  -13.1480 36.3537  -2.4236 -54.5305  -2.4236 -54.5305  -15.1480 46.3537
110.890000  -13.0748 36.6534  -2.4436 -54.9801  -2.4436 -54.9801  -15.0748 46.6534
115.885000  -13.0036 36.9531  -2.4635 -55.4297  -2.4635 -55.4297  -15.0036 46.9531
120.880000  -12.9343 37.2528  -2.4835 -55.8792  -2.4835 -55.8792  -14.9343 47.2528
125.875000  -12.8670 37.5525  -2.5035 -56.3287  -2.5035 -56.3287  -14.8670 47.5525
130.870000  -12.8019 37.8522  -2.5235 -56.7783  -2.5235 -56.7783  -14.8019 47.8522
135.865000  -12.7389 38.1519  -2.5435 -57.2279  -2.5435 -57.2279  -14.7389 48.1519
140.860000  -12.6782 38.4516  -2.5634 -57.6774  -2.5634 -57.6774  -14.6782 48.4516
145.855000  -12.6197 38.7513  -2.5834 -58.1270  -2.5834 -58.1270  -14.6197 48.7513
150.850000  -12.5636 39.0510  -2.6034 -58.5765  -2.6034 -58.5765  -14.5636 49.0510
155.845000  -12.5098 39.3507  -2.6234 -59.0260  -2.6234 -59.0260  -14.5098 49.3507
160.840000  -12.4586 39.6504  -2.6434 -59.4756  -2.6434 -59.4756  -14.4586 49.6504
165.835000  -12.4098 39.9501  -2.6633 -59.9252  -2.6633 -59.9252  -14.4098 49.9501
170.830000  -12.3636 40.2498  -2.6833 -60.3747  -2.6833 -60.3747  -14.3636 50.2498
175.825000  -12.3200 40.5495  -2.7033 -60.8242  -2.7033 -60.8242  -14.3200 50.5495
180.820000  -12.2790 40.8492  -2.7233 -61.2738  -2.7233 -61.2738  -14.2790 50.8492
185.815000  -12.2407 41.1489  -2.7433 -61.7233  -2.7433 -61.7233  -14.2407 51.1489
190.810000  -12.2051 41.4486  -2.7632 -62.1729  -2.7632 -62.1729  -14.2051 51.4486
195.805000  -12.1723 41.7483  -2.7832 -62.6225  -2.7832 -62.6225  -14.1723 51.7483
200.800000  -12.1422 42.0480  -2.8032 -63.0720  -2.8032 -63.0720  -14.1422 52.0480
205.795000  -12.1150 42.3477  -2.8232 -63.5216  -2.8232 -63.5216  -14.1150 52.3477
210.790000  -12.0906 42.6474  -2.8432 -63.9711  -2.8432 -63.9711  -14.0906 52.6474
215.785000  -12.0691 42.9471  -2.8631 -64.4206  -2.8631 -64.4206  -14.0691 52.9471
220.780000  -12.0504 43.2468  -2.8831 -64.8702  -2.8831 -64.8702  -14.0504 53.2468
225.775000  -12.0347 43.5465  -2.9031 -65.3197  -2.9031 -65.3197  -14.0347 53.5465
230.770000  -12.0219 43.8462  -2.9231 -65.7693  -2.9231 -65.7693  -14.0219 53.8462
235.765000  -12.0120 44.1459  -2.9431 -66.2189  -2.9431 -66.2189  -14.0120 54.1459
240.760000  -12.0051 44.4456  -2.9630 -66.6684  -2.9630 -66.6684  -14.0051 54.4456
245.755000  -12.0011 44.7453  -2.9830 -67.1180  -2.9830 -67.1180  -14.0011 54.7453
250.750000  -12.0000 45.0450  -3.0030 -67.5675  -3.0030 -67.5675  -14.0000 55.0450
255.745000  -12.0020 45.3447  -3.0230 -68.0170  -3.0230 -68.0170  -14.0020 55.3447
260.740000  -12.0068 45.6444  -3.0430 -68.4666  -3.0430 -68.4666  -14.0068 55.6444
265.735000  -12.0146 45.9441  -3.0629 -68.9162  -3.0629 -68.9162  -14.0146 55.9441
270.730000  -12.0254 46.2438  -3.0829 -69.3657  -3.0829 -69.3657  -14.0254 56.2438
275.725000  -12.0391 46.5435  -3.1029 -69.8152  -3.1029 -69.8152  -14.0391 56.5435
280.720000  -12.0557 46.8432  -3.1229 -70.2648  -3.1229 -70.2648  -14.0557 56.8432
285.715000  -12.0752 47.1429  -3.1429 -70.7143  -3.1429 -70.7143  -14.0752 57.1429
290.710000  -12.0976 47.4426  -3.1628 -71.1639  -3.1628 -71.1639  -14.0976 57.4426
295.705000  -12.1229 47.7423  -3.1828 -71.6135  -3.1828 -71.6135  -14.1229 57.7423
300.700000  -12.1509 48.0420  -3.2028 -72.0630  -3.2028 -72.0630  -14.1509 58.0420
305.695000  -12.1818 48.3417  -3.2228 -72.5126  -3.2228 -72.5126  -14.1818 58.3417
310.690000  -12.2155 48.6414  -3.2428 -72.9621  -3.2428 -72.9621  -14.2155 58.6414
315.685000  -12.2519 48.9411  -3.2627 -73.4116  -3.2627 -73.4116  -14.2519 58.9411
320.680000  -12.2910 49.2408  -3.2827 -73.8612  -3.2827 -73.8612  -14.2910 59.2408
325.675000  -12.3328 49.5405  -3.3027 -74.3107  -3.3027 -74.3107  -14.3328 59.5405
330.670000  -12.3772 49.8402  -3.3227 -74.7603  -3.3227 -74.7603  -14.3772 59.8402
335.665000  -12.4242 50.1399  -3.3427 -75.2099  -3.3427 -75.2099  -14.4242 60.1399
340.660000  -12.4737 50.4396  -3.3626 -75.6594  -3.3626 -75.6594  -14.4737 60.4396
345.655000  -12.5257 50.7393  -3.3826 -76.1089  -3.3826 -76.1089  -14.5257 60.7393
350.650000  -12.5802 51.0390  -3.4026 -76.5585  -3.4026 -76.5585  -14.5802 61.0390
355.645000  -12.6370 51.3387  -3.4226 -77.0080  -3.4226 -77.0080  -14.6370 61.3387
360.640000  -12.6962 51.6384  -3.4426 -77.4576  -3.4426 -77.4576  -14.6962 61.6384
365.635000  -12.7576 51.9381  -3.4625 -77.9072  -3.4625 -77.9072  -14.7576 61.9381
370.630000  -12.8212 52.2378  -3.4825 -78.3567  -3.4825 -78.3567  -14.8212 62.2378
375.625000  -12.8870 52.5375  -3.5025 -78.8063  -3.5025 -78.8063  -14.8870 62.5375
380.620000  -12.9549 52.8372  -3.5225 -79.2558  -3.5225 -79.2558  -14.9549 62.8372
385.615000  -13.0248 53.1369  -3.5425 -79.7053  -3.5425 -79.7053  -15.0248 63.1369
390.610000  -13.0966 53.4366  -3.5624 -80.1549  -3.5624 -80.1549  -15.0966 63.4366
395.605000  -13.1703 53.7363  -3.5824 -80.6044  -3.5824 -80.6044  -15.1703 63.7363
400.600000  -13.2458 54.0360  -3.6024 -81.0540  -3.6024 -81.0540  -15.2458 64.0360
405.595000  -13.3230 54.3357  -3.6224 -81.5035  -3.6224 -81.5035  -15.3230 64.3357
410.590000  -13.4019 54.6354  -3.6424 -81.9531  -3.6424 -81.9531  -15.4019 64.6354
415.585000  -13.4824 54.9351  -3.6623 -82.4026  -3.6623 -82.4026  -15.4824 64.9351
420.580000  -13.5643 55.2348  -3.6823 -82.8522  -3.6823 -82.8522  -15.5643 65.2348
425.575000  -13.6477 55.5345  -3.7023 -83.3017  -3.7023 -83.3017  -15.6477 65.5345
430.570000  -13.7324 55.8342  -3.7223 -83.7513  -3.7223 -83.7513  -15.7324 65.8342
435.565000  -13.8183 56.1339  -3.7423 -84.2009  -3.7423 -84.2009  -15.8183 66.1339
440.560000  -13.9054 56.4336  -3.7622 -84.6504  -3.7622 -84.6504  -15.9054 66.4336
445.555000  -13.9936 56.7333  -3.7822 -85.1000  -3.7822 -85.1000  -15.9936 66.7333
450.550000  -14.0828 57.0330  -3.8022 -85.5495  -3.8022 -85.5495  -16.0828 67.0330
455.545000  -14.1729 57.3327  -3.8222 -85.9990  -3.8222 -85.9990  -16.1729 67.3327
460.540000  -14.2638 57.6324  -3.8422 -86.4486  -3.8422 -86.4486  -16.2638 67.6324
465.535000  -14.3554 57.9321  -3.8621 -86.8982  -3.8621 -86.8982  -16.3554 67.9321
470.530000  -14.4477 58.2318  -3.8821 -87.3477  -3.8821 -87.3477  -16.4477 68.2318
475.525000  -14.5405 58.5315  -3.9021 -87.7972  -3.9021 -87.7972  -16.5405 68.5315
480.520000  -14.6337 58.8312  -3.9221 -88.2468  -3.9221 -88.2468  -16.6337 68.8312
485.515000  -14.7273 59.1309  -3.9421 -88.6963  -3.9421 -88.6963  -16.7273 69.1309
490.510000  -14.8212 59.4306  -3.9620 -89.1459  -3.9620 -89.1459  -16.8212 69.4306
495.505000  -14.9153 59.7303  -3.9820 -89.5954  -3.9820 -89.5954  -16.9153 69.7303
500.500000  -15.0094 60.0300  -4.0020 -90.0450  -4.0020 -90.0450  -17.0094 70.0300
505.495000  -15.1036 60.3297  -4.0220 -90.4946  -4.0220 -90.4946  -17.1036 70.3297
510.490000  -15.1976 60.6294  -4.0420 -90.9441  -4.0420 -90.9441  -17.1976 70.6294
515.485000  -15.2914 60.9291  -4.0619 -91.3936  -4.0619 -91.3936  -17.2914 70.9291
520.480000  -15.3850 61.2288  -4.0819 -91.8432  -4.0819 -91.8432  -17.3850 71.2288
525.475000  -15.4781 61.5285  -4.1019 -92.2928  -4.1019 -92.2928  -17.4781 71.5285
530.470000  -15.5708 61.8282  -4.1219 -92.7423  -4.1219 -92.7423  -17.5708 71.8282
535.465000  -15.6630 62.1279  -4.1419 -93.1918  -4.1419 -93.1918  -17.6630 72.1279
540.460000  -15.7545 62.4276  -4.1618 -93.6414  -4.1618 -93.6414  -17.7545 72.4276
545.455000  -15.8452 62.7273  -4.1818 -94.0909  -4.1818 -94.0909  -17.8452 72.7273
550.450000  -15.9351 63.0270  -4.2018 -94.5405  -4.2018 -94.5405  -17.9351 73.0270
555.445000  -16.0241 63.3267  -4.2218 -94.9900  -4.2218 -94.9900  -18.0241 73.3267
560.440000  -16.1121 63.6264  -4.2418 -95.4396  -4.2418 -95.4396  -18.1121 73.6264
565.435000  -16.1990 63.9261  -4.2617 -95.8892  -4.2617 -95.8892  -18.1990 73.9261
570.430000  -16.2847 64.2258  -4.2817 -96.3387  -4.2817 -96.3387  -18.2847 74.2258
575.425000  -16.3691 64.5255  -4.3017 -96.7883  -4.3017 -96.7883  -18.3691 74.5255
580.420000  -16.4522 64.8252  -4.3217 -97.2378  -4.3217 -97.2378  -18.4522 74.8252
585.415000  -16.5339 65.1249  -4.3417 -97.6874  -4.3417 -97.6874  -18.5339 75.1249
590.410000  -16.6140 65.4246  -4.3616 -98.1369  -4.3616 -98.1369  -18.6140 75.4246
595.405000  -16.6926 65.7243  -4.3816 -98.5864  -4.3816 -98.5864  -18.6926 75.7243
600.400000  -16.7695 66.0240  -4.4016 -99.0360  -4.4016 -99.0360  -18.7695 76.0240
605.395000  -16.8446 66.3237  -4.4216 -99.4856  -4.4216 -99.4856  -18.8446 76.3237
610.390000  -16.9179 66.6234  -4.4416 -99.9351  -4.4416 -99.9351  -18.9179 76.6234
615.385000  -16.9894 66.9231  -4.4615 -100.3846  -4.4615 -100.3846  -18.9894 76.9231
620.380000  -17.0589 67.2228  -4.4815 -100.8342  -4.4815 -100.8342  -19.0589 77.2228
625.375000  -17.1263 67.5225  -4.5015 -101.2837  -4.5015 -101.2837  -19.1263 77.5225
630.370000  -17.1917 67.8222  -4.5215 -101.7333  -4.5215 -101.7333  -19.1917 77.8222
635.365000  -17.2549 68.1219  -4.5415 -102.1829  -4.5415 -102.1829  -19.2549 78.1219
640.360000  -17.3159 68.4216  -4.5614 -102.6324  -4.5614 -102.6324  -19.3159 78.4216
645.355000  -17.3746 68.7213  -4.5814 -103.0820  -4.5814 -103.0820  -19.3746 78.7213
650.350000  -17.4309 69.0210  -4.6014 -103.5315  -4.6014 -103.5315  -19.4309 79.0210
655.345000  -17.4849 69.3207  -4.6214 -103.9810  -4.6214 -103.9810  -19.4849 79.3207
660.340000  -17.5364 69.6204  -4.6414 -104.4306  -4.6414 -104.4306  -19.5364 79.6204
665.335000  -17.5854 69.9201  -4.6613 -104.8802  -4.6613 -104.8802  -19.5854 79.9201
670.330000  -17.6319 70.2198  -4.6813 -105.3297  -4.6813 -105.3297  -19.6319 80.2198
675.325000  -17.6758 70.5195  -4.7013 -105.7792  -4.7013 -105.7792  -19.6758 80.5195
680.320000  -17.7170 70.8192  -4.7213 -106.2288  -4.7213 -106.2288  -19.7170 80.8192
685.315000  -17.7556 71.1189  -4.7413 -106.6783  -4.7413 -106.6783  -19.7556 81.1189
690.310000  -17.7915 71.4186  -4.7612 -107.1279  -4.7612 -107.1279  -19.7915 81.4186
695.305000  -17.8246 71.7183  -4.7812 -107.5774  -4.7812 -107.5774  -19.8246 81.7183
700.300000  -17.8549 72.0180  -4.8012 -108.0270  -4.8012 -108.0270  -19.8549 82.0180
705.295000  -17.8824 72.3177  -4.8212 -108.4766  -4.8212 -108.4766  -19.8824 82.3177
710.290000  -17.9071 72.6174  -4.8412 -108.9261  -4.8412 -108.9261  -19.9071 82.6174
715.285000  -17.9289 72.9171  -4.8611 -109.3756  -4.8611 -109.3756  -19.9289 82.9171
720.280000  -17.9478 73.2168  -4.8811 -109.8252  -4.8811 -109.8252  -19.9478 83.2168
725.275000  -17.9639 73.5165  -4.9011 -110.2747  -4.9011 -110.2747  -19.9639 83.5165
730.270000  -17.9770 73.8162  -4.9211 -110.7243  -4.9211 -110.7243  -19.9770 83.8162
735.265000  -17.9872 74.1159  -4.9411 -111.1739  -4.9411 -111.1739  -19.9872 84.1159
740.260000  -17.9944 74.4156  -4.9610 -111.6234  -4.9610 -111.6234  -19.9944 84.4156
745.255000  -17.9987 74.7153  -4.9810 -112.0730  -4.9810 -112.0730  -19.9987 84.7153
750.250000  -18.0000 75.0150  -5.0010 -112.5225  -5.0010 -112.5225  -20.0000 85.0150
755.245000  -17.9984 75.3147  -5.0210 -112.9721  -5.0210 -112.9721  -19.9984 85.3147
760.240000  -17.9938 75.6144  -5.0410 -113.4216  -5.0410 -113.4216  -19.9938 85.6144
765.235000  -17.9863 75.9141  -5.0609 -113.8712  -5.0609 -113.8712  -19.9863 85.9141
770.230000  -17.9758 76.2138  -5.0809 -114.3207  -5.0809 -114.3207  -19.9758 86.2138
775.225000  -17.9624 76.5135  -5.1009 -114.7703  -5.1009 -114.7703  -19.9624 86.5135
780.220000  -17.9461 76.8132  -5.1209 -115.2198  -5.1209 -115.2198  -19.9461 86.8132
785.215000  -17.9269 77.1129  -5.1409 -115.6693  -5.1409 -115.6693  -19.9269 87.1129
790.210000  -17.9048 77.4126  -5.1608 -116.1189  -5.1608 -116.1189  -19.9048 87.4126
795.205000  -17.8798 77.7123  -5.1808 -116.5684  -5.1808 -116.5684  -19.8798 87.7123
800.200000  -17.8520 78.0120  -5.2008 -117.0180  -5.2008 -117.0180  -19.8520 88.0120
805.195000  -17.8214 78.3117  -5.2208 -117.4676  -5.2208 -117.4676  -19.8214 88.3117
810.190000  -17.7880 78.6114  -5.2408 -117.9171  -5.2408 -117.9171  -19.7880 88.6114
815.185000  -17.7519 78.9111  -5.2607 -118.3667  -5.2607 -118.3667  -19.7519 88.9111
820.180000  -17.7130 79.2108  -5.2807 -118.8162  -5.2807 -118.8162  -19.7130 89.2108
825.175000  -17.6715 79.5105  -5.3007 -119.2657  -5.3007 -119.2657  -19.6715 89.5105
830.170000  -17.6274 79.8102  -5.3207 -119.7153  -5.3207 -119.7153  -19.6274 89.8102
835.165000  -17.5806 80.1099  -5.3407 -120.1649  -5.3407 -120.1649  -19.5806 90.1099
840.160000  -17.5314 80.4096  -5.3606 -120.6144  -5.3606 -120.6144  -19.5314 90.4096
845.155000  -17.4796 80.7093  -5.3806 -121.0640  -5.3806 -121.0640  -19.4796 90.7093
850.150000  -17.4254 81.0090  -5.4006 -121.5135  -5.4006 -121.5135  -19.4254 91.0090
855.145000  -17.3688 81.3087  -5.4206 -121.9631  -5.4206 -121.9631  -19.3688 91.3087
860.140000  -17.3099 81.6084  -5.4406 -122.4126  -5.4406 -122.4126  -19.3099 91.6084
865.135000  -17.2486 81.9081  -5.4605 -122.8621  -5.4605 -122.8621  -19.2486 91.9081
870.130000  -17.1852 82.2078  -5.4805 -123.3117  -5.4805 -123.3117  -19.1852 92.2078
875.125000  -17.1197 82.5075  -5.5005 -123.7613  -5.5005 -123.7613  -19.1197 92.5075
880.120000  -17.0520 82.8072  -5.5205 -124.2108  -5.5205 -124.2108  -19.0520 92.8072
885.115000  -16.9823 83.1069  -5.5405 -124.6603  -5.5405 -124.6603  -18.9823 93.1069
890.110000  -16.9107 83.4066  -5.5604 -125.1099  -5.5604 -125.1099  -18.9107 93.4066
895.105000  -16.8372 83.7063  -5.5804 -125.5594  -5.5804 -125.5594  -18.8372 93.7063
900.100000  -16.7618 84.0060  -5.6004 -126.0090  -5.6004 -126.0090  -18.7618 94.0060
905.095000  -16.6848 84.3057  -5.6204 -126.4586  -5.6204 -126.4586  -18.6848 94.3057
910.090000  -16.6060 84.6054  -5.6404 -126.9081  -5.6404 -126.9081  -18.6060 94.6054
915.085000  -16.5257 84.9051  -5.6603 -127.3577  -5.6603 -127.3577  -18.5257 94.9051
920.080000  -16.4439 85.2048  -5.6803 -127.8072  -5.6803 -127.8072  -18.4439 95.2048
925.075000  -16.3607 85.5045  -5.7003 -128.2568  -5.7003 -128.2568  -18.3607 95.5045
930.070000  -16.2761 85.8042  -5.7203 -128.7063  -5.7203 -128.7063  -18.2761 95.8042
935.065000  -16.1903 86.1039  -5.7403 -129.1558  -5.7403 -129.1558  -18.1903 96.1039
940.060000  -16.1033 86.4036  -5.7602 -129.6054  -5.7602 -129.6054  -18.1033 96.4036
945.055000  -16.0152 86.7033  -5.7802 -130.0549  -5.7802 -130.0549  -18.0152 96.7033
950.050000  -15.9262 87.0030  -5.8002 -130.5045  -5.8002 -130.5045  -17.9262 97.0030
955.045000  -15.8362 87.3027  -5.8202 -130.9540  -5.8202 -130.9540  -17.8362 97.3027
960.040000  -15.7453 87.6024  -5.8402 -131.4036  -5.8402 -131.4036  -17.7453 97.6024
965.035000  -15.6538 87.9021  -5.8601 -131.8531  -5.8601 -131.8531  -17.6538 97.9021
970.030000  -15.5616 88.2018  -5.8801 -132.3027  -5.8801 -132.3027  -17.5616 98.2018
975.025000  -15.4688 88.5015  -5.9001 -132.7523  -5.9001 -132.7523  -17.4688 98.5015
980.020000  -15.3756 88.8012  -5.9201 -133.2018  -5.9201 -133.2018  -17.3756 98.8012
985.015000  -15.2820 89.1009  -5.9401 -133.6513  -5.9401 -133.6513  -17.2820 99.1009
990.010000  -15.1882 89.4006  -5.9600 -134.1009  -5.9600 -134.1009  -17.1882 99.4006
995.005000  -15.0941 89.7003  -5.9800 -134.5505  -5.9800 -134.5505  -17.0941 99.7003
1000.000000  -15.0000 90.0000  -6.0000 -135.0000  -6.0000 -135.0000  -17.0000 100.0000
