! Synthetic S2P fixture: vna_1500mm.s2p
! Generated for testing purposes
# MHZ S DB R 50
1.000000  -14.9812 30.0600  -3.0060 -45.0900  -3.0060 -45.0900  -16.9812 40.0600
5.995000  -14.8870 30.3597  -3.0360 -45.5395  -3.0360 -45.5395  -16.8870 40.3597
10.990000  -14.7930 30.6594  -3.0659 -45.9891  -3.0659 -45.9891  -16.7930 40.6594
15.985000  -14.6992 30.9591  -3.0959 -46.4387  -3.0959 -46.4387  -16.6992 40.9591
20.980000  -14.6057 31.2588  -3.1259 -46.8882  -3.1259 -46.8882  -16.6057 41.2588
25.975000  -14.5126 31.5585  -3.1559 -47.3377  -3.1559 -47.3377  -16.5126 41.5585
30.970000  -14.4199 31.8582  -3.1858 -47.7873  -3.1858 -47.7873  -16.4199 41.8582
35.965000  -14.3278 32.1579  -3.2158 -48.2368  -3.2158 -48.2368  -16.3278 42.1579
40.960000  -14.2364 32.4576  -3.2458 -48.6864  -3.2458 -48.6864  -16.2364 42.4576
45.955000  -14.1458 32.7573  -3.2757 -49.1360  -3.2757 -49.1360  -16.1458 42.7573
50.950000  -14.0559 33.0570  -3.3057 -49.5855  -3.3057 -49.5855  -16.0559 43.0570
55.945000  -13.9670 33.3567  -3.3357 -50.0350  -3.3357 -50.0350  -15.9670 43.3567
60.940000  -13.8792 33.6564  -3.3656 -50.4846  -3.3656 -50.4846  -15.8792 43.6564
65.935000  -13.7924 33.9561  -3.3956 -50.9342  -3.3956 -50.9342  -15.7924 43.9561
70.930000  -13.7068 34.2558  -3.4256 -51.3837  -3.4256 -51.3837  -15.7068 44.2558
75.925000  -13.6225 34.5555  -3.4556 -51.8332  -3.4556 -51.8332  -15.6225 44.5555
80.920000  -13.5396 34.8552  -3.4855 -52.2828  -3.4855 -52.2828  -15.5396 44.8552
85.915000  -13.4581 35.1549  -3.5155 -52.7323  -3.5155 -52.7323  -15.4581 45.1549
90.910000  -13.3781 35.4546  -3.5455 -53.1819  -3.5455 -53.1819  -15.3781 45.4546
95.905000  -13.2997 35.7543  -3.5754 -53.6315  -3.5754 -53.6315  -15.2997 45.7543
100.900000  -13.2229 36.0540  -3.6054 -54.0810  -3.6054 -54.0810  -15.2229 46.0540
105.895000  -13.1480 36.3537  -3.6354 -54.5305  -3.6354 -54.5305  -15.1480 46.3537
110.890000  -13.0748 36.6534  -3.6653 -54.9801  -3.6653 -54.9801  -15.0748 46.6534
115.885000  -13.0036 36.9531  -3.6953 -55.4297  -3.6953 -55.4297  -15.0036 46.9531
120.880000  -12.9343 37.2528  -3.7253 -55.8792  -3.7253 -55.8792  -14.9343 47.2528
125.875000  -12.8670 37.5525  -3.7553 -56.3287  -3.7553 -56.3287  -14.8670 47.5525
130.870000  -12.8019 37.8522  -3.7852 -56.7783  -3.7852 -56.7783  -14.8019 47.8522
135.865000  -12.7389 38.1519  -3.8152 -57.2279  -3.8152 -57.2279  -14.7389 48.1519
140.860000  -12.6782 38.4516  -3.8452 -57.6774  -3.8452 -57.6774  -14.6782 48.4516
145.855000  -12.6197 38.7513  -3.8751 -58.1270  -3.8751 -58.1270  -14.6197 48.7513
150.850000  -12.5636 39.0510  -3.9051 -58.5765  -3.9051 -58.5765  -14.5636 49.0510
155.845000  -12.5098 39.3507  -3.9351 -59.0260  -3.9351 -59.0260  -14.5098 49.3507
160.840000  -12.4586 39.6504  -3.9650 -59.4756  -3.9650 -59.4756  -14.4586 49.6504
165.835000  -12.4098 39.9501  -3.9950 -59.9252  -3.9950 -59.9252  -14.4098 49.9501
170.830000  -12.3636 40.2498  -4.0250 -60.3747  -4.0250 -60.3747  -14.3636 50.2498
175.825000  -12.3200 40.5495  -4.0549 -60.8242  -4.0549 -60.8242  -14.3200 50.5495
180.820000  -12.2790 40.8492  -4.0849 -61.2738  -4.0849 -61.2738  -14.2790 50.8492
185.815000  -12.2407 41.1489  -4.1149 -61.7233  -4.1149 -61.7233  -14.2407 51.1489
190.810000  -12.2051 41.4486  -4.1449 -62.1729  -4.1449 -62.1729  -14.2051 51.4486
195.805000  -12.1723 41.7483  -4.1748 -62.6225  -4.1748 -62.6225  -14.1723 51.7483
200.800000  -12.1422 42.0480  -4.2048 -63.0720  -4.2048 -63.0720  -14.1422 52.0480
205.795000  -12.1150 42.3477  -4.2348 -63.5216  -4.2348 -63.5216  -14.1150 52.3477
210.790000  -12.0906 42.6474  -4.2647 -63.9711  -4.2647 -63.9711  -14.0906 52.6474
215.785000  -12.0691 42.9471  -4.2947 -64.4206  -4.2947 -64.4206  -14.0691 52.9471
220.780000  -12.0504 43.2468  -4.3247 -64.8702  -4.3247 -64.8702  -14.0504 53.2468
225.775000  -12.0347 43.5465  -4.3546 -65.3197  -4.3546 -65.3197  -14.0347 53.5465
230.770000  -12.0219 43.8462  -4.3846 -65.7693  -4.3846 -65.7693  -14.0219 53.8462
235.765000  -12.0120 44.1459  -4.4146 -66.2189  -4.4146 -66.2189  -14.0120 54.1459
240.760000  -12.0051 44.4456  -4.4446 -66.6684  -4.4446 -66.6684  -14.0051 54.4456
245.755000  -12.0011 44.7453  -4.4745 -67.1180  -4.4745 -67.1180  -14.0011 54.7453
250.750000  -12.0000 45.0450  -4.5045 -67.5675  -4.5045 -67.5675  -14.0000 55.0450
255.745000  -12.0020 45.3447  -4.5345 -68.0170  -4.5345 -68.0170  -14.0020 55.3447
260.740000  -12.0068 45.6444  -4.5644 -68.4666  -4.5644 -68.4666  -14.0068 55.6444
265.735000  -12.0146 45.9441  -4.5944 -68.9162  -4.5944 -68.9162  -14.0146 55.9441
270.730000  -12.0254 46.2438  -4.6244 -69.3657  -4.6244 -69.3657  -14.0254 56.2438
275.725000  -12.0391 46.5435  -4.6543 -69.8152  -4.6543 -69.8152  -14.0391 56.5435
280.720000  -12.0557 46.8432  -4.6843 -70.2648  -4.6843 -70.2648  -14.0557 56.8432
285.715000  -12.0752 47.1429  -4.7143 -70.7143  -4.7143 -70.7143  -14.0752 57.1429
290.710000  -12.0976 47.4426  -4.7443 -71.1639  -4.7443 -71.1639  -14.0976 57.4426
295.705000  -12.1229 47.7423  -4.7742 -71.6135  -4.7742 -71.6135  -14.1229 57.7423
300.700000  -12.1509 48.0420  -4.8042 -72.0630  -4.8042 -72.0630  -14.1509 58.0420
305.695000  -12.1818 48.3417  -4.8342 -72.5126  -4.8342 -72.5126  -14.1818 58.3417
310.690000  -12.2155 48.6414  -4.8641 -72.9621  -4.8641 -72.9621  -14.2155 58.6414
315.685000  -12.2519 48.9411  -4.8941 -73.4116  -4.8941 -73.4116  -14.2519 58.9411
320.680000  -12.2910 49.2408  -4.9241 -73.8612  -4.9241 -73.8612  -14.2910 59.2408
325.675000  -12.3328 49.5405  -4.9541 -74.3107  -4.9541 -74.3107  -14.3328 59.5405
330.670000  -12.3772 49.8402  -4.9840 -74.7603  -4.9840 -74.7603  -14.3772 59.8402
335.665000  -12.4242 50.1399  -5.0140 -75.2099  -5.0140 -75.2099  -14.4242 60.1399
340.660000  -12.4737 50.4396  -5.0440 -75.6594  -5.0440 -75.6594  -14.4737 60.4396
345.655000  -12.5257 50.7393  -5.0739 -76.1089  -5.0739 -76.1089  -14.5257 60.7393
350.650000  -12.5802 51.0390  -5.1039 -76.5585  -5.1039 -76.5585  -14.5802 61.0390
355.645000  -12.6370 51.3387  -5.1339 -77.0080  -5.1339 -77.0080  -14.6370 61.3387
360.640000  -12.6962 51.6384  -5.1638 -77.4576  -5.1638 -77.4576  -14.6962 61.6384
365.635000  -12.7576 51.9381  -5.1938 -77.9072  -5.1938 -77.9072  -14.7576 61.9381
370.630000  -12.8212 52.2378  -5.2238 -78.3567  -5.2238 -78.3567  -14.8212 62.2378
375.625000  -12.8870 52.5375  -5.2538 -78.8063  -5.2538 -78.8063  -14.8870 62.5375
380.620000  -12.9549 52.8372  -5.2837 -79.2558  -5.2837 -79.2558  -14.9549 62.8372
385.615000  -13.0248 53.1369  -5.3137 -79.7053  -5.3137 -79.7053  -15.0248 63.1369
390.610000  -13.0966 53.4366  -5.3437 -80.1549  -5.3437 -80.1549  -15.0966 63.4366
395.605000  -13.1703 53.7363  -5.3736 -80.6044  -5.3736 -80.6044  -15.1703 63.7363
400.600000  -13.2458 54.0360  -5.4036 -81.0540  -5.4036 -81.0540  -15.2458 64.0360
405.595000  -13.3230 54.3357  -5.4336 -81.5035  -5.4336 -81.5035  -15.3230 64.3357
410.590000  -13.4019 54.6354  -5.4635 -81.9531  -5.4635 -81.9531  -15.4019 64.6354
415.585000  -13.4824 54.9351  -5.4935 -82.4026  -5.4935 -82.4026  -15.4824 64.9351
420.580000  -13.5643 55.2348  -5.5235 -82.8522  -5.5235 -82.8522  -15.5643 65.2348
425.575000  -13.6477 55.5345  -5.5534 -83.3017  -5.5534 -83.3017  -15.6477 65.5345
430.570000  -13.7324 55.8342  -5.5834 -83.7513  -5.5834 -83.7513  -15.7324 65.8342
435.565000  -13.8183 56.1339  -5.6134 -84.2009  -5.6134 -84.2009  -15.8183 66.1339
440.560000  -13.9054 56.4336  -5.6434 -84.6504  -5.6434 -84.6504  -15.9054 66.4336
445.555000  -13.9936 56.7333  -5.6733 -85.1000  -5.6733 -85.1000  -15.9936 66.7333
450.550000  -14.0828 57.0330  -5.7033 -85.5495  -5.7033 -85.5495  -16.0828 67.0330
455.545000  -14.1729 57.3327  -5.7333 -85.9990  -5.7333 -85.9990  -16.1729 67.3327
460.540000  -14.2638 57.6324  -5.7632 -86.4486  -5.7632 -86.4486  -16.2638 67.6324
465.535000  -14.3554 57.9321  -5.7932 -86.8982  -5.7932 -86.8982  -16.3554 67.9321
470.530000  -14.4477 58.2318  -5.8232 -87.3477  -5.8232 -87.3477  -16.4477 68.2318
475.525000  -14.5405 58.5315  -5.8531 -87.7972  -5.8531 -87.7972  -16.5405 68.5315
480.520000  -14.6337 58.8312  -5.8831 -88.2468  -5.8831 -88.2468  -16.6337 68.8312
485.515000  -14.7273 59.1309  -5.9131 -88.6963  -5.9131 -88.6963  -16.7273 69.1309
490.510000  -14.8212 59.4306  -5.9431 -89.1459  -5.9431 -89.1459  -16.8212 69.4306
495.505000  -14.9153 59.7303  -5.9730 -89.5954  -5.9730 -89.5954  -16.9153 69.7303
500.500000  -15.0094 60.0300  -6.0030 -90.0450  -6.0030 -90.0450  -17.0094 70.0300
505.495000  -15.1036 60.3297  -6.0330 -90.4946  -6.0330 -90.4946  -17.1036 70.3297
510.490000  -15.1976 60.6294  -6.0629 -90.9441  -6.0629 -90.9441  -17.1976 70.6294
515.485000  -15.2914 60.9291  -6.0929 -91.3936  -6.0929 -91.3936  -17.2914 70.9291
520.480000  -15.3850 61.2288  -6.1229 -91.8432  -6.1229 -91.8432  -17.3850 71.2288
525.475000  -15.4781 61.5285  -6.1528 -92.2928  -6.1528 -92.2928  -17.4781 71.5285
530.470000  -15.5708 61.8282  -6.1828 -92.7423  -6.1828 -92.7423  -17.5708 71.8282
535.465000  -15.6630 62.1279  -6.2128 -93.1918  -6.2128 -93.1918  -17.6630 72.1279
540.460000  -15.7545 62.4276  -6.2428 -93.6414  -6.2428 -93.6414  -17.7545 72.4276
545.455000  -15.8452 62.7273  -6.2727 -94.0909  -6.2727 -94.0909  -17.8452 72.7273
550.450000  -15.9351 63.0270  -6.3027 -94.5405  -6.3027 -94.5405  -17.9351 73.0270
555.445000  -16.0241 63.3267  -6.3327 -94.9900  -6.3327 -94.9900  -18.0241 73.3267
560.440000  -16.1121 63.6264  -6.3626 -95.4396  -6.3626 -95.4396  -18.1121 73.6264
565.435000  -16.1990 63.9261  -6.3926 -95.8892  -6.3926 -95.8892  -18.1990 73.9261
570.430000  -16.2847 64.2258  -6.4226 -96.3387  -6.4226 -96.3387  -18.2847 74.2258
575.425000  -16.3691 64.5255  -6.4525 -96.7883  -6.4525 -96.7883  -18.3691 74.5255
580.420000  -16.4522 64.8252  -6.4825 -97.2378  -6.4825 -97.2378  -18.4522 74.8252
585.415000  -16.5339 65.1249  -6.5125 -97.6874  -6.5125 -97.6874  -18.5339 75.1249
590.410000  -16.6140 65.4246  -6.5425 -98.1369  -6.5425 -98.1369  -18.6140 75.4246
595.405000  -16.6926 65.7243  -6.5724 -98.5864  -6.5724 -98.5864  -18.6926 75.7243
600.400000  -16.7695 66.0240  -6.6024 -99.0360  -6.6024 -99.0360  -18.7695 76.0240
605.395000  -16.8446 66.3237  -6.6324 -99.4856  -6.6324 -99.4856  -18.8446 76.3237
610.390000  -16.9179 66.6234  -6.6623 -99.9351  -6.6623 -99.9351  -18.9179 76.6234
615.385000  -16.9894 66.9231  -6.6923 -100.3846  -6.6923 -100.3846  -18.9894 76.9231
620.380000  -17.0589 67.2228  -6.7223 -100.8342  -6.7223 -100.8342  -19.0589 77.2228
625.375000  -17.1263 67.5225  -6.7523 -101.2837  -6.7523 -101.2837  -19.1263 77.5225
630.370000  -17.1917 67.8222  -6.7822 -101.7333  -6.7822 -101.7333  -19.1917 77.8222
635.365000  -17.2549 68.1219  -6.8122 -102.1829  -6.8122 -102.1829  -19.2549 78.1219
640.360000  -17.3159 68.4216  -6.8422 -102.6324  -6.8422 -102.6324  -19.3159 78.4216
645.355000  -17.3746 68.7213  -6.8721 -103.0820  -6.8721 -103.0820  -19.3746 78.7213
650.350000  -17.4309 69.0210  -6.9021 -103.5315  -6.9021 -103.5315  -19.4309 79.0210
655.345000  -17.4849 69.3207  -6.9321 -103.9810  -6.9321 -103.9810  -19.4849 79.3207
660.340000  -17.5364 69.6204  -6.9620 -104.4306  -6.9620 -104.4306  -19.5364 79.6204
665.335000  -17.5854 69.9201  -6.9920 -104.8802  -6.9920 -104.8802  -19.5854 79.9201
670.330000  -17.6319 70.2198  -7.0220 -105.3297  -7.0220 -105.3297  -19.6319 80.2198
675.325000  -17.6758 70.5195  -7.0519 -105.7792  -7.0519 -105.7792  -19.6758 80.5195
680.320000  -17.7170 70.8192  -7.0819 -106.2288  -7.0819 -106.2288  -19.7170 80.8192
685.315000  -17.7556 71.1189  -7.1119 -106.6783  -7.1119 -106.6783  -19.7556 81.1189
690.310000  -17.7915 71.4186  -7.1419 -107.1279  -7.1419 -107.1279  -19.7915 81.4186
695.305000  -17.8246 71.7183  -7.1718 -107.5774  -7.1718 -107.5774  -19.8246 81.7183
700.300000  -17.8549 72.0180  -7.2018 -108.0270  -7.2018 -108.0270  -19.8549 82.0180
705.295000  -17.8824 72.3177  -7.2318 -108.4766  -7.2318 -108.4766  -19.8824 82.3177
710.290000  -17.9071 72.6174  -7.2617 -108.9261  -7.2617 -108.9261  -19.9071 82.6174
715.285000  -17.9289 72.9171  -7.2917 -109.3756  -7.2917 -109.3756  -19.9289 82.9171
720.280000  -17.9478 73.2168  -7.3217 -109.8252  -7.3217 -109.8252  -19.9478 83.2168
725.275000  -17.9639 73.5165  -7.3517 -110.2747  -7.3517 -110.2747  -19.9639 83.5165
730.270000  -17.9770 73.8162  -7.3816 -110.7243  -7.3816 -110.7243  -19.9770 83.8162
735.265000  -17.9872 74.1159  -7.4116 -111.1739  -7.4116 -111.1739  -19.9872 84.1159
740.260000  -17.9944 74.4156  -7.4416 -111.6234  -7.4416 -111.6234  -19.9944 84.4156
745.255000  -17.9987 74.7153  -7.4715 -112.0730  -7.4715 -112.0730  -19.9987 84.7153
750.250000  -18.0000 75.0150  -7.5015 -112.5225  -7.5015 -112.5225  -20.0000 85.0150
755.245000  -17.9984 75.3147  -7.5315 -112.9721  -7.5315 -112.9721  -19.9984 85.3147
760.240000  -17.9938 75.6144  -7.5614 -113.4216  -7.5614 -113.4216  -19.9938 85.6144
765.235000  -17.9863 75.9141  -7.5914 -113.8712  -7.5914 -113.8712  -19.9863 85.9141
770.230000  -17.9758 76.2138  -7.6214 -114.3207  -7.6214 -114.3207  -19.9758 86.2138
775.225000  -17.9624 76.5135  -7.6514 -114.7703  -7.6514 -114.7703  -19.9624 86.5135
780.220000  -17.9461 76.8132  -7.6813 -115.2198  -7.6813 -115.2198  -19.9461 86.8132
785.215000  -17.9269 77.1129  -7.7113 -115.6693  -7.7113 -115.6693  -19.9269 87.1129
790.210000  -17.9048 77.4126  -7.7413 -116.1189  -7.7413 -116.1189  -19.9048 87.4126
795.205000  -17.8798 77.7123  -7.7712 -116.5684  -7.7712 -116.5684  -19.8798 87.7123
800.200000  -17.8520 78.0120  -7.8012 -117.0180  -7.8012 -117.0180  -19.8520 88.0120
805.195000  -17.8214 78.3117  -7.8312 -117.4676  -7.8312 -117.4676  -19.8214 88.3117
810.190000  -17.7880 78.6114  -7.8611 -117.9171  -7.8611 -117.9171  -19.7880 88.6114
815.185000  -17.7519 78.9111  -7.8911 -118.3667  -7.8911 -118.3667  -19.7519 88.9111
820.180000  -17.7130 79.2108  -7.9211 -118.8162  -7.9211 -118.8162  -19.7130 89.2108
825.175000  -17.6715 79.5105  -7.9511 -119.2657  -7.9511 -119.2657  -19.6715 89.5105
830.170000  -17.6274 79.8102  -7.9810 -119.7153  -7.9810 -119.7153  -19.6274 89.8102
835.165000  -17.5806 80.1099  -8.0110 -120.1649  -8.0110 -120.1649  -19.5806 90.1099
840.160000  -17.5314 80.4096  -8.0410 -120.6144  -8.0410 -120.6144  -19.5314 90.4096
845.155000  -17.4796 80.7093  -8.0709 -121.0640  -8.0709 -121.0640  -19.4796 90.7093
850.150000  -17.4254 81.0090  -8.1009 -121.5135  -8.1009 -121.5135  -19.4254 91.0090
855.145000  -17.3688 81.3087  -8.1309 -121.9631  -8.1309 -121.9631  -19.3688 91.3087
860.140000  -17.3099 81.6084  -8.1608 -122.4126  -8.1608 -122.4126  -19.3099 91.6084
865.135000  -17.2486 81.9081  -8.1908 -122.8621  -8.1908 -122.8621  -19.2486 91.9081
870.130000  -17.1852 82.2078  -8.2208 -123.3117  -8.2208 -123.3117  -19.1852 92.2078
875.125000  -17.1197 82.5075  -8.2508 -123.7613  -8.2508 -123.7613  -19.1197 92.5075
880.120000  -17.0520 82.8072  -8.2807 -124.2108  -8.2807 -124.2108  -19.0520 92.8072
885.115000  -16.9823 83.1069  -8.3107 -124.6603  -8.3107 -124.6603  -18.9823 93.1069
890.110000  -16.9107 83.4066  -8.3407 -125.1099  -8.3407 -125.1099  -18.9107 93.4066
895.105000  -16.8372 83.7063  -8.3706 -125.5594  -8.3706 -125.5594  -18.8372 93.7063
900.100000  -16.7618 84.0060  -8.4006 -126.0090  -8.4006 -126.0090  -18.7618 94.0060
905.095000  -16.6848 84.3057  -8.4306 -126.4586  -8.4306 -126.4586  -18.6848 94.3057
910.090000  -16.6060 84.6054  -8.4605 -126.9081  -8.4605 -126.9081  -18.6060 94.6054
915.085000  -16.5257 84.9051  -8.4905 -127.3577  -8.4905 -127.3577  -18.5257 94.9051
920.080000  -16.4439 85.2048  -8.5205 -127.8072  -8.5205 -127.8072  -18.4439 95.2048
925.075000  -16.3607 85.5045  -8.5504 -128.2568  -8.5504 -128.2568  -18.3607 95.5045
930.070000  -16.2761 85.8042  -8.5804 -128.7063  -8.5804 -128.7063  -18.2761 95.8042
935.065000  -16.1903 86.1039  -8.6104 -129.1558  -8.6104 -129.1558  -18.1903 96.1039
940.060000  -16.1033 86.4036  -8.6404 -129.6054  -8.6404 -129.6054  -18.1033 96.4036
945.055000  -16.0152 86.7033  -8.6703 -130.0549  -8.6703 -130.0549  -18.0152 96.7033
950.050000  -15.9262 87.0030  -8.7003 -130.5045  -8.7003 -130.5045  -17.9262 97.0030
955.045000  -15.8362 87.3027  -8.7303 -130.9540  -8.7303 -130.9540  -17.8362 97.3027
960.040000  -15.7453 87.6024  -8.7602 -131.4036  -8.7602 -131.4036  -17.7453 97.6024
965.035000  -15.6538 87.9021  -8.7902 -131.8531  -8.7902 -131.8531  -17.6538 97.9021
970.030000  -15.5616 88.2018  -8.8202 -132.3027  -8.8202 -132.3027  -17.5616 98.2018
975.025000  -15.4688 88.5015  -8.8501 -132.7523  -8.8501 -132.7523  -17.4688 98.5015
980.020000  -15.3756 88.8012  -8.8801 -133.2018  -8.8801 -133.2018  -17.3756 98.8012
985.015000  -15.2820 89.1009  -8.9101 -133.6513  -8.9101 -133.6513  -17.2820 99.1009
990.010000  -15.1882 89.4006  -8.9401 -134.1009  -8.9401 -134.1009  -17.1882 99.4006
995.005000  -15.0941 89.7003  -8.9700 -134.5505  -8.9700 -134.5505  -17.0941 99.7003
1000.000000  -15.0000 90.0000  -9.0000 -135.0000  -9.0000 -135.0000  -17.0000 100.0000
