! Synthetic S2P fixture: test_cable.s2p
! Generated for testing purposes
# MHZ S DB R 50
1.000000  -14.9812 30.0600  -3.0050 -45.0900  -3.0050 -45.0900  -16.9812 40.0600
50.950000  -14.0559 33.0570  -3.2548 -49.5855  -3.2548 -49.5855  -16.0559 43.0570
100.900000  -13.2229 36.0540  -3.5045 -54.0810  -3.5045 -54.0810  -15.2229 46.0540
150.850000  -12.5636 39.0510  -3.7542 -58.5765  -3.7542 -58.5765  -14.5636 49.0510
200.800000  -12.1422 42.0480  -4.0040 -63.0720  -4.0040 -63.0720  -14.1422 52.0480
250.750000  -12.0000 45.0450  -4.2538 -67.5675  -4.2538 -67.5675  -14.0000 55.0450
300.700000  -12.1509 48.0420  -4.5035 -72.0630  -4.5035 -72.0630  -14.1509 58.0420
350.650000  -12.5802 51.0390  -4.7532 -76.5585  -4.7532 -76.5585  -14.5802 61.0390
400.600000  -13.2458 54.0360  -5.0030 -81.0540  -5.0030 -81.0540  -15.2458 64.0360
450.550000  -14.0828 57.0330  -5.2527 -85.5495  -5.2527 -85.5495  -16.0828 67.0330
500.500000  -15.0094 60.0300  -5.5025 -90.0450  -5.5025 -90.0450  -17.0094 70.0300
550.450000  -15.9351 63.0270  -5.7523 -94.5405  -5.7523 -94.5405  -17.9351 73.0270
600.400000  -16.7695 66.0240  -6.0020 -99.0360  -6.0020 -99.0360  -18.7695 76.0240
650.350000  -17.4309 69.0210  -6.2517 -103.5315  -6.2517 -103.5315  -19.4309 79.0210
700.300000  -17.8549 72.0180  -6.5015 -108.0270  -6.5015 -108.0270  -19.8549 82.0180
750.250000  -18.0000 75.0150  -6.7512 -112.5225  -6.7512 -112.5225  -20.0000 85.0150
800.200000  -17.8520 78.0120  -7.0010 -117.0180  -7.0010 -117.0180  -19.8520 88.0120
850.150000  -17.4254 81.0090  -7.2508 -121.5135  -7.2508 -121.5135  -19.4254 91.0090
900.100000  -16.7618 84.0060  -7.5005 -126.0090  -7.5005 -126.0090  -18.7618 94.0060
950.050000  -15.9262 87.0030  -7.7502 -130.5045  -7.7502 -130.5045  -17.9262 97.0030
1000.000000  -15.0000 90.0000  -8.0000 -135.0000  -8.0000 -135.0000  -17.0000 100.0000
